T0928 000:018.067   SEGGER J-Link V6.70e Log File
T0928 000:018.193   DLL Compiled: Apr 17 2020 17:55:05
T0928 000:018.199   Logging started @ 2021-08-20 02:36
T0928 000:018.207 JLINK_SetWarnOutHandler(...)
T0928 000:018.214 - 0.009ms
T0928 000:018.223 JLINK_OpenEx(...)
T0928 000:019.671   Firmware: J-Link OB-STM32F072-CortexM compiled Jan  7 2019 14:09:37
T0928 000:019.872   Decompressing FW timestamp took 162 us
T0928 000:024.861   Hardware: V1.00
T0928 000:024.884   S/N: 4294967295
T0928 000:024.893   OEM: SEGGER
T0928 000:024.901   Feature(s): GDB, RDI, FlashBP, FlashDL, JFlash, RDDI
T0928 000:026.005   TELNET listener socket opened on port 19021
T0928 000:026.098   WEBSRV Starting webserver
T0928 000:026.286   WEBSRV Webserver running on local port 19080
T0928 000:026.302 - 8.083ms returns "O.K."
T0928 000:026.321 JLINK_GetEmuCaps()
T0928 000:026.329 - 0.010ms returns 0xB8EA5A33
T0928 000:026.339 JLINK_TIF_GetAvailable(...)
T0928 000:026.636 - 0.302ms
T0928 000:026.650 JLINK_SetErrorOutHandler(...)
T0928 000:026.655 - 0.008ms
T0928 000:026.674 JLINK_ExecCommand("ProjectFile = "C:\Users\chenh\Desktop\F1任务调度by_chw\USER\JLinkSettings.ini"", ...). 
T0928 000:035.218 - 8.562ms returns 0x00
T0928 000:035.259 JLINK_ExecCommand("Device = STM32F103RC", ...). 
T0928 000:035.528   Device "STM32F103RC" selected.
T0928 000:035.851 - 0.587ms returns 0x00
T0928 000:035.864 JLINK_ExecCommand("DisableConnectionTimeout", ...). 
T0928 000:035.875 - 0.005ms returns 0x01
T0928 000:035.883 JLINK_GetHardwareVersion()
T0928 000:035.888 - 0.008ms returns 0x2710
T0928 000:035.896 JLINK_GetDLLVersion()  returns 67005
T0928 000:035.907 JLINK_GetFirmwareString(...)
T0928 000:035.913 - 0.008ms
T0928 000:035.936 JLINK_GetDLLVersion()  returns 67005
T0928 000:035.943 JLINK_GetCompileDateTime()
T0928 000:035.949 - 0.007ms
T0928 000:035.961 JLINK_GetFirmwareString(...)
T0928 000:035.966 - 0.008ms
T0928 000:035.977 JLINK_GetHardwareVersion()
T0928 000:035.983 - 0.008ms returns 0x2710
T0928 000:036.006 JLINK_TIF_Select(JLINKARM_TIF_SWD)
T0928 000:036.540 - 0.540ms returns 0x00
T0928 000:036.562 JLINK_SetSpeed(10000)
T0928 000:036.628 - 0.071ms
T0928 000:036.639 JLINK_GetId()
T0928 000:037.735   Found SW-DP with ID 0x1BA01477
T0928 000:052.224   Found SW-DP with ID 0x1BA01477
T0928 000:054.469   Old FW that does not support reading DPIDR via DAP jobs
T0928 000:055.494   Unknown DP version. Assuming DPv0
T0928 000:055.517   Scanning AP map to find all available APs
T0928 000:056.228   AP[1]: Stopped AP scan as end of AP map has been reached
T0928 000:056.245   AP[0]: AHB-AP (IDR: 0x14770011)
T0928 000:056.257   Iterating through AP map to find AHB-AP to use
T0928 000:057.524   AP[0]: Core found
T0928 000:057.544   AP[0]: AHB-AP ROM base: 0xE00FF000
T0928 000:058.099   CPUID register: 0x411FC231. Implementer code: 0x41 (ARM)
T0928 000:058.116   Found Cortex-M3 r1p1, Little endian.
T0928 000:159.633    -- Max. mem block: 0x00002340
T0928 000:159.669   CPU_ReadMem(4 bytes @ 0xE000EDF0)
T0928 000:160.500   CPU_WriteMem(4 bytes @ 0xE000EDF0)
T0928 000:160.927   CPU_ReadMem(4 bytes @ 0xE0002000)
T0928 000:161.366   FPUnit: 6 code (BP) slots and 2 literal slots
T0928 000:161.382   CPU_ReadMem(4 bytes @ 0xE000EDFC)
T0928 000:161.782   CPU_WriteMem(4 bytes @ 0xE000EDFC)
T0928 000:162.214   CPU_ReadMem(4 bytes @ 0xE0001000)
T0928 000:162.614   CPU_WriteMem(4 bytes @ 0xE0001000)
T0928 000:163.039   CPU_ReadMem(4 bytes @ 0xE000ED88)
T0928 000:163.519   CPU_WriteMem(4 bytes @ 0xE000ED88)
T0928 000:163.945   CPU_ReadMem(4 bytes @ 0xE000ED88)
T0928 000:164.344   CPU_WriteMem(4 bytes @ 0xE000ED88)
T0928 000:164.814   CoreSight components:
T0928 000:164.836   ROMTbl[0] @ E00FF000
T0928 000:164.846   CPU_ReadMem(64 bytes @ 0xE00FF000)
T0928 000:165.874   CPU_ReadMem(32 bytes @ 0xE000EFE0)
T0928 000:166.578   ROMTbl[0][0]: E000E000, CID: B105E00D, PID: 001BB000 SCS
T0928 000:166.591   CPU_ReadMem(32 bytes @ 0xE0001FE0)
T0928 000:167.272   ROMTbl[0][1]: E0001000, CID: B105E00D, PID: 001BB002 DWT
T0928 000:167.324   CPU_ReadMem(32 bytes @ 0xE0002FE0)
T0928 000:168.033   ROMTbl[0][2]: E0002000, CID: B105E00D, PID: 000BB003 FPB
T0928 000:168.047   CPU_ReadMem(32 bytes @ 0xE0000FE0)
T0928 000:168.799   ROMTbl[0][3]: E0000000, CID: B105E00D, PID: 001BB001 ITM
T0928 000:168.813   CPU_ReadMem(32 bytes @ 0xE0040FE0)
T0928 000:169.518   ROMTbl[0][4]: E0040000, CID: B105900D, PID: 001BB923 TPIU-Lite
T0928 000:169.530   CPU_ReadMem(32 bytes @ 0xE0041FE0)
T0928 000:170.217   ROMTbl[0][5]: E0041000, CID: B105900D, PID: 101BB924 ETM-M3
T0928 000:170.610 - 133.977ms   returns 0x1BA01477
T0928 000:170.628 JLINK_GetDLLVersion()  returns 67005
T0928 000:170.671 JLINK_CORE_GetFound()
T0928 000:170.678 - 0.010ms returns 0x30000FF
T0928 000:170.687 JLINK_GetDebugInfo(0x100 = JLINKARM_ROM_TABLE_ADDR_INDEX)
T0928 000:170.697   Value=0xE00FF000
T0928 000:170.706 - 0.021ms returns 0x00
T0928 000:170.723 JLINK_GetDebugInfo(0x100 = JLINKARM_ROM_TABLE_ADDR_INDEX)
T0928 000:170.730   Value=0xE00FF000
T0928 000:170.739 - 0.018ms returns 0x00
T0928 000:170.746 JLINK_GetDebugInfo(0x101 = JLINKARM_DEBUG_INFO_ETM_ADDR_INDEX)
T0928 000:170.753   Value=0xE0041000
T0928 000:170.761 - 0.017ms returns 0x00
T0928 000:170.773   JLINK_ReadMemEx(0xE0041FD0, 0x0020 Bytes, ..., Flags = 0x02000004)
T0928 000:170.797   CPU_ReadMem(32 bytes @ 0xE0041FD0)
T0928 000:171.492   Data:  04 00 00 00 00 00 00 00 00 00 00 00 00 00 00 00 ...
T0928 000:171.504 - 0.736ms returns 0x20
T0928 000:171.514 JLINK_GetDebugInfo(0x102 = JLINKARM_DEBUG_INFO_MTB_ADDR_INDEX)
T0928 000:171.521   Value=0x00000000
T0928 000:171.530 - 0.018ms returns 0x00
T0928 000:171.538 JLINK_GetDebugInfo(0x103 = JLINKARM_DEBUG_INFO_TPIU_ADDR_INDEX)
T0928 000:171.544   Value=0xE0040000
T0928 000:171.552 - 0.018ms returns 0x00
T0928 000:171.560 JLINK_GetDebugInfo(0x104 = JLINKARM_DEBUG_INFO_ITM_ADDR_INDEX)
T0928 000:171.567   Value=0xE0000000
T0928 000:171.576 - 0.018ms returns 0x00
T0928 000:171.583 JLINK_GetDebugInfo(0x105 = JLINKARM_DEBUG_INFO_DWT_ADDR_INDEX)
T0928 000:171.590   Value=0xE0001000
T0928 000:171.598 - 0.017ms returns 0x00
T0928 000:171.606 JLINK_GetDebugInfo(0x106 = JLINKARM_DEBUG_INFO_FPB_ADDR_INDEX)
T0928 000:171.612   Value=0xE0002000
T0928 000:171.620 - 0.017ms returns 0x00
T0928 000:171.628 JLINK_GetDebugInfo(0x107 = JLINKARM_DEBUG_INFO_NVIC_ADDR_INDEX)
T0928 000:171.634   Value=0xE000E000
T0928 000:171.643 - 0.017ms returns 0x00
T0928 000:171.650 JLINK_GetDebugInfo(0x10C = JLINKARM_DEBUG_INFO_DBG_ADDR_INDEX)
T0928 000:171.657   Value=0xE000EDF0
T0928 000:171.665 - 0.018ms returns 0x00
T0928 000:171.673 JLINK_GetDebugInfo(0x01 = Unknown)
T0928 000:171.681   Value=0x00000000
T0928 000:171.690 - 0.019ms returns 0x00
T0928 000:171.699 JLINK_ReadMemU32(0xE000ED00, 0x0001 Items, ...)
T0928 000:171.710   CPU_ReadMem(4 bytes @ 0xE000ED00)
T0928 000:172.165   Data:  31 C2 1F 41
T0928 000:172.179    - CPUID
T0928 000:172.189 - 0.492ms returns 1
T0928 000:172.198 JLINK_GetDebugInfo(0x10F = JLINKARM_DEBUG_INFO_HAS_CORTEX_M_SECURITY_EXT_INDEX)
T0928 000:172.205   Value=0x00000000
T0928 000:172.214 - 0.018ms returns 0x00
T0928 000:172.224 JLINK_SetResetType(JLINKARM_CM3_RESET_TYPE_NORMAL)
T0928 000:172.230 - 0.009ms returns JLINKARM_CM3_RESET_TYPE_NORMAL
T0928 000:172.238 JLINK_Reset()
T0928 000:172.258   CPU is running
T0928 000:172.268   CPU_WriteMem(4 bytes @ 0xE000EDF0)
T0928 000:172.713   CPU is running
T0928 000:172.724   CPU_WriteMem(4 bytes @ 0xE000EDFC)
T0928 000:173.312   Reset: Halt core after reset via DEMCR.VC_CORERESET.
T0928 000:173.799   Reset: Reset device via AIRCR.SYSRESETREQ.
T0928 000:173.813   CPU is running
T0928 000:173.823   CPU_WriteMem(4 bytes @ 0xE000ED0C)
T0928 000:226.567   CPU_ReadMem(4 bytes @ 0xE000EDF0)
T0928 000:226.990   CPU_ReadMem(4 bytes @ 0xE000EDF0)
T0928 000:227.393   CPU is running
T0928 000:227.406   CPU_WriteMem(4 bytes @ 0xE000EDF0)
T0928 000:227.834   CPU is running
T0928 000:227.851   CPU_WriteMem(4 bytes @ 0xE000EDFC)
T0928 000:234.086   CPU_ReadMem(4 bytes @ 0xE000EDF0)
T0928 000:238.992   CPU_WriteMem(4 bytes @ 0xE0002000)
T0928 000:239.553   CPU_ReadMem(4 bytes @ 0xE000EDFC)
T0928 000:239.968   CPU_ReadMem(4 bytes @ 0xE0001000)
T0928 000:240.375 - 68.143ms
T0928 000:240.430 JLINK_ReadReg(R15 (PC))
T0928 000:240.443 - 0.016ms returns 0x08000F3C
T0928 000:240.452 JLINK_ReadReg(XPSR)
T0928 000:240.459 - 0.010ms returns 0x01000000
T0928 000:240.468 JLINK_Halt()
T0928 000:240.475 - 0.010ms returns 0x00
T0928 000:240.484 JLINK_ReadMemU32(0xE000EDF0, 0x0001 Items, ...)
T0928 000:240.496   CPU_ReadMem(4 bytes @ 0xE000EDF0)
T0928 000:240.910   Data:  03 00 03 00
T0928 000:240.922    - DHCSR
T0928 000:240.932 - 0.450ms returns 1
T0928 000:240.942 JLINK_WriteU32(0xE000EDF0, 0xA05F0003)
T0928 000:240.949    - DHCSR
T0928 000:240.969   CPU_WriteMem(4 bytes @ 0xE000EDF0)
T0928 000:241.415 - 0.479ms returns 0
T0928 000:241.427 JLINK_WriteU32(0xE000EDFC, 0x01000000)
T0928 000:241.435    - DEMCR
T0928 000:241.448   CPU_WriteMem(4 bytes @ 0xE000EDFC)
T0928 000:241.877 - 0.456ms returns 0
T0928 000:241.929 JLINK_GetHWStatus(...)
T0928 000:242.079 - 0.155ms returns 0x00
T0928 000:242.111 JLINK_GetNumBPUnits(Type = 0xFFFFFF00)
T0928 000:242.119 - 0.011ms returns 0x06
T0928 000:242.127 JLINK_GetNumBPUnits(Type = 0xF0)
T0928 000:242.134 - 0.009ms returns 0x2000
T0928 000:242.143 JLINK_GetNumWPUnits()
T0928 000:242.149 - 0.009ms returns 0x04
T0928 000:242.170 JLINK_GetSpeed()
T0928 000:242.177 - 0.010ms returns 0x7D0
T0928 000:242.192 JLINK_ReadMemU32(0xE000E004, 0x0001 Items, ...)
T0928 000:242.204   CPU_ReadMem(4 bytes @ 0xE000E004)
T0928 000:242.642   Data:  01 00 00 00
T0928 000:242.658 - 0.469ms returns 1
T0928 000:242.670 JLINK_ReadMemU32(0xE000E004, 0x0001 Items, ...)
T0928 000:242.682   CPU_ReadMem(4 bytes @ 0xE000E004)
T0928 000:243.085   Data:  01 00 00 00
T0928 000:243.097 - 0.430ms returns 1
T0928 000:243.107 JLINK_WriteMemEx(0xE0001000, 0x001C Bytes, ..., Flags = 0x02000004)
T0928 000:243.115   Data:  01 00 00 00 00 00 00 00 00 00 00 00 00 00 00 00 ...
T0928 000:243.624   CPU_WriteMem(28 bytes @ 0xE0001000)
T0928 000:244.316 - 1.216ms returns 0x1C
T0928 000:244.334 JLINK_ReadReg(R15 (PC))
T0928 000:244.344 - 0.013ms returns 0x08000F3C
T0928 000:244.353 JLINK_ReadReg(XPSR)
T0928 000:244.360 - 0.010ms returns 0x01000000
T0928 000:257.917   JLINK_ReadMemEx(0xE0001004, 0x0004 Bytes, ..., Flags = 0x02000000)
T0928 000:257.951   Data:  00 00 00 00
T0928 000:257.961    - DWT_CYCCNT
T0928 000:257.970 - 0.057ms returns 0x04
T0928 000:323.613 JLINK_SetResetType(JLINKARM_CM3_RESET_TYPE_NORMAL)
T0928 000:323.636 - 0.026ms returns JLINKARM_CM3_RESET_TYPE_NORMAL
T0928 000:323.644 JLINK_Reset()
T0928 000:323.660   CPU_WriteMem(4 bytes @ 0xE000EDF0)
T0928 000:324.169   CPU_WriteMem(4 bytes @ 0xE000EDFC)
T0928 000:324.640   Reset: Halt core after reset via DEMCR.VC_CORERESET.
T0928 000:325.061   Reset: Reset device via AIRCR.SYSRESETREQ.
T0928 000:325.076   CPU_WriteMem(4 bytes @ 0xE000ED0C)
T0928 000:378.194   CPU_ReadMem(4 bytes @ 0xE000EDF0)
T0928 000:378.605   CPU_ReadMem(4 bytes @ 0xE000EDF0)
T0928 000:379.003   CPU_WriteMem(4 bytes @ 0xE000EDF0)
T0928 000:379.439   CPU_WriteMem(4 bytes @ 0xE000EDFC)
T0928 000:385.726   CPU_ReadMem(4 bytes @ 0xE000EDF0)
T0928 000:390.543   CPU_WriteMem(4 bytes @ 0xE0002000)
T0928 000:391.006   CPU_ReadMem(4 bytes @ 0xE000EDFC)
T0928 000:391.419   CPU_ReadMem(4 bytes @ 0xE0001000)
T0928 000:391.834 - 68.197ms
T0928 000:391.893 JLINK_ReadReg(R15 (PC))
T0928 000:391.904 - 0.015ms returns 0x08000F3C
T0928 000:391.913 JLINK_ReadReg(XPSR)
T0928 000:391.920 - 0.009ms returns 0x01000000
T0928 000:564.414   JLINK_ReadMemEx(0x08000F3C, 0x003C Bytes, ..., Flags = 0x02000000)
T0928 000:564.439   CPU_ReadMem(128 bytes @ 0x08000F00)
T0928 000:566.169    -- Updating C cache (128 bytes @ 0x08000F00)
T0928 000:566.183    -- Read from C cache (60 bytes @ 0x08000F3C)
T0928 000:566.193   Data:  09 48 80 47 09 48 00 47 FE E7 FE E7 FE E7 FE E7 ...
T0928 000:566.200 - 1.790ms returns 0x3C
T0928 000:566.210   JLINK_ReadMemEx(0x08000F3C, 0x0002 Bytes, ..., Flags = 0x02000000)
T0928 000:566.223    -- Read from C cache (2 bytes @ 0x08000F3C)
T0928 000:566.234   Data:  09 48
T0928 000:566.242 - 0.034ms returns 0x02
T0928 000:566.304   JLINK_ReadMemEx(0x08000F3E, 0x0002 Bytes, ..., Flags = 0x02000000)
T0928 000:566.313    -- Read from C cache (2 bytes @ 0x08000F3E)
T0928 000:566.320   Data:  80 47
T0928 000:566.328 - 0.027ms returns 0x02
T0928 000:621.831   JLINK_ReadMemEx(0x40012C00, 0x0010 Bytes, ..., Flags = 0x02000004)
T0928 000:621.862   CPU_ReadMem(16 bytes @ 0x40012C00)
T0928 000:622.433   Data:  00 00 00 00 00 00 00 00 00 00 00 00 00 00 00 00
T0928 000:622.469 - 0.642ms returns 0x10
T0928 000:622.492   JLINK_ReadMemEx(0x40012C10, 0x0004 Bytes, ..., Flags = 0x02000004)
T0928 000:622.515   CPU_ReadMem(4 bytes @ 0x40012C10)
T0928 000:622.964   Data:  00 00 00 00
T0928 000:622.979 - 0.491ms returns 0x04
T0928 000:622.992   JLINK_ReadMemEx(0x40012C18, 0x0014 Bytes, ..., Flags = 0x02000004)
T0928 000:623.005   CPU_ReadMem(20 bytes @ 0x40012C18)
T0928 000:623.660   Data:  00 00 00 00 00 00 00 00 00 00 00 00 00 00 00 00 ...
T0928 000:623.674 - 0.685ms returns 0x14
T0928 000:623.684   JLINK_ReadMemEx(0x40012C2C, 0x0004 Bytes, ..., Flags = 0x02000004)
T0928 000:623.695   CPU_ReadMem(4 bytes @ 0x40012C2C)
T0928 000:624.167   Data:  00 00 00 00
T0928 000:624.182 - 0.502ms returns 0x04
T0928 000:624.196   JLINK_ReadMemEx(0x40012C30, 0x0004 Bytes, ..., Flags = 0x02000004)
T0928 000:624.207   CPU_ReadMem(4 bytes @ 0x40012C30)
T0928 000:624.605   Data:  00 00 00 00
T0928 000:624.616 - 0.426ms returns 0x04
T0928 000:624.632   JLINK_ReadMemEx(0x40012C34, 0x000C Bytes, ..., Flags = 0x02000004)
T0928 000:624.645   CPU_ReadMem(12 bytes @ 0x40012C34)
T0928 000:625.175   Data:  00 00 00 00 00 00 00 00 00 00 00 00
T0928 000:625.186 - 0.558ms returns 0x0C
T0928 000:625.199   JLINK_ReadMemEx(0x40012C40, 0x0004 Bytes, ..., Flags = 0x02000004)
T0928 000:625.210   CPU_ReadMem(4 bytes @ 0x40012C40)
T0928 000:625.617   Data:  00 00 00 00
T0928 000:625.629 - 0.432ms returns 0x04
T0928 000:625.640   JLINK_ReadMemEx(0x40012C44, 0x0004 Bytes, ..., Flags = 0x02000004)
T0928 000:625.652   CPU_ReadMem(4 bytes @ 0x40012C44)
T0928 000:626.083   Data:  00 00 00 00
T0928 000:626.094 - 0.456ms returns 0x04
T0928 000:626.105   JLINK_ReadMemEx(0x40012C48, 0x0004 Bytes, ..., Flags = 0x02000004)
T0928 000:626.115   CPU_ReadMem(4 bytes @ 0x40012C48)
T0928 000:626.622   Data:  00 00 00 00
T0928 000:626.633 - 0.531ms returns 0x04
T0928 000:626.644   JLINK_ReadMemEx(0x40012C4C, 0x0004 Bytes, ..., Flags = 0x02000004)
T0928 000:626.655   CPU_ReadMem(4 bytes @ 0x40012C4C)
T0928 000:627.054   Data:  00 00 00 00
T0928 000:627.064 - 0.424ms returns 0x04
T0928 001:432.963   JLINK_ReadMemEx(0x08000F3C, 0x003C Bytes, ..., Flags = 0x02000000)
T0928 001:432.992    -- Read from C cache (60 bytes @ 0x08000F3C)
T0928 001:433.001   Data:  09 48 80 47 09 48 00 47 FE E7 FE E7 FE E7 FE E7 ...
T0928 001:433.009 - 0.050ms returns 0x3C
T0928 001:433.018   JLINK_ReadMemEx(0x08000F3C, 0x0002 Bytes, ..., Flags = 0x02000000)
T0928 001:433.026    -- Read from C cache (2 bytes @ 0x08000F3C)
T0928 001:433.034   Data:  09 48
T0928 001:433.042 - 0.027ms returns 0x02
T0928 001:433.050   JLINK_ReadMemEx(0x08000F3E, 0x0002 Bytes, ..., Flags = 0x02000000)
T0928 001:433.058    -- Read from C cache (2 bytes @ 0x08000F3E)
T0928 001:433.066   Data:  80 47
T0928 001:433.074 - 0.027ms returns 0x02
T0928 001:433.087   JLINK_ReadMemEx(0x08000F3E, 0x0002 Bytes, ..., Flags = 0x02000000)
T0928 001:433.096    -- Read from C cache (2 bytes @ 0x08000F3E)
T0928 001:433.103   Data:  80 47
T0928 001:433.111 - 0.027ms returns 0x02
T0928 001:433.119   JLINK_ReadMemEx(0x08000F40, 0x003C Bytes, ..., Flags = 0x02000000)
T0928 001:433.127    -- Read from C cache (60 bytes @ 0x08000F40)
T0928 001:433.135   Data:  09 48 00 47 FE E7 FE E7 FE E7 FE E7 FE E7 FE E7 ...
T0928 001:433.143 - 0.027ms returns 0x3C
T0928 001:433.150   JLINK_ReadMemEx(0x08000F40, 0x0002 Bytes, ..., Flags = 0x02000000)
T0928 001:433.164    -- Read from C cache (2 bytes @ 0x08000F40)
T0928 001:433.172   Data:  09 48
T0928 001:433.180 - 0.033ms returns 0x02
T40E8 001:656.324   JLINK_ReadMemEx(0x08000F3C, 0x0002 Bytes, ..., Flags = 0x02000000)
T40E8 001:656.353    -- Read from C cache (2 bytes @ 0x08000F3C)
T40E8 001:656.361   Data:  09 48
T40E8 001:656.370 - 0.049ms returns 0x02
T40E8 001:656.383   JLINK_SetBPEx(Addr = 0x08000276, Type = 0xFFFFFFF2)
T40E8 001:656.394 - 0.014ms returns 0x00000001
T40E8 001:656.405 JLINK_Go()
T40E8 001:656.887   CPU_WriteMem(4 bytes @ 0xE0002000)
T40E8 001:657.354   CPU_ReadMem(4 bytes @ 0xE0001000)
T40E8 001:657.874   CPU_WriteMem(4 bytes @ 0xE0002008)
T40E8 001:657.884   CPU_WriteMem(4 bytes @ 0xE000200C)
T40E8 001:657.892   CPU_WriteMem(4 bytes @ 0xE0002010)
T40E8 001:657.900   CPU_WriteMem(4 bytes @ 0xE0002014)
T40E8 001:657.908   CPU_WriteMem(4 bytes @ 0xE0002018)
T40E8 001:657.917   CPU_WriteMem(4 bytes @ 0xE000201C)
T40E8 001:660.375   CPU_WriteMem(4 bytes @ 0xE0001004)
T40E8 001:661.447 - 5.053ms
T40E8 001:762.046 JLINK_IsHalted()
T40E8 001:766.476 - 4.439ms returns TRUE
T40E8 001:766.495 JLINK_Halt()
T40E8 001:766.501 - 0.008ms returns 0x00
T40E8 001:766.508 JLINK_IsHalted()
T40E8 001:766.514 - 0.008ms returns TRUE
T40E8 001:766.522 JLINK_IsHalted()
T40E8 001:766.530 - 0.010ms returns TRUE
T40E8 001:766.537 JLINK_IsHalted()
T40E8 001:766.542 - 0.008ms returns TRUE
T40E8 001:766.552 JLINK_ReadReg(R15 (PC))
T40E8 001:766.560 - 0.011ms returns 0x08000276
T40E8 001:766.567 JLINK_ReadReg(XPSR)
T40E8 001:766.573 - 0.008ms returns 0x61000000
T40E8 001:766.585 JLINK_ClrBPEx(BPHandle = 0x00000001)
T40E8 001:766.591 - 0.009ms returns 0x00
T40E8 001:766.602 JLINK_ReadMemU32(0xE000ED30, 0x0001 Items, ...)
T40E8 001:766.616   CPU_ReadMem(4 bytes @ 0xE000ED30)
T40E8 001:767.179   Data:  02 00 00 00
T40E8 001:767.194 - 0.595ms returns 1
T40E8 001:767.205 JLINK_ReadMemU32(0xE0001028, 0x0001 Items, ...)
T40E8 001:767.217   CPU_ReadMem(4 bytes @ 0xE0001028)
T40E8 001:767.647   Data:  00 00 00 00
T40E8 001:767.673    - DWT_FUNC[0]
T40E8 001:767.682 - 0.480ms returns 1
T40E8 001:767.692 JLINK_ReadMemU32(0xE0001038, 0x0001 Items, ...)
T40E8 001:767.702   CPU_ReadMem(4 bytes @ 0xE0001038)
T40E8 001:768.171   Data:  00 02 00 00
T40E8 001:768.183    - DWT_FUNC[1]
T40E8 001:768.191 - 0.501ms returns 1
T40E8 001:768.200 JLINK_ReadMemU32(0xE0001048, 0x0001 Items, ...)
T40E8 001:768.215   CPU_ReadMem(4 bytes @ 0xE0001048)
T40E8 001:768.639   Data:  00 00 00 00
T40E8 001:768.654    - DWT_FUNC[2]
T40E8 001:768.666 - 0.468ms returns 1
T40E8 001:768.675 JLINK_ReadMemU32(0xE0001058, 0x0001 Items, ...)
T40E8 001:768.686   CPU_ReadMem(4 bytes @ 0xE0001058)
T40E8 001:769.172   Data:  00 00 00 00
T40E8 001:769.186    - DWT_FUNC[3]
T40E8 001:769.197 - 0.524ms returns 1
T40E8 001:769.248 JLINK_ReadReg(R0)
T40E8 001:769.258 - 0.013ms returns 0x20000290
T40E8 001:769.266 JLINK_ReadReg(R1)
T40E8 001:769.272 - 0.008ms returns 0x20000490
T40E8 001:769.280 JLINK_ReadReg(R2)
T40E8 001:769.288 - 0.012ms returns 0x20000490
T40E8 001:769.297 JLINK_ReadReg(R3)
T40E8 001:769.307 - 0.013ms returns 0x20000490
T40E8 001:769.315 JLINK_ReadReg(R4)
T40E8 001:769.320 - 0.008ms returns 0x00000000
T40E8 001:769.327 JLINK_ReadReg(R5)
T40E8 001:769.333 - 0.008ms returns 0x20000230
T40E8 001:769.340 JLINK_ReadReg(R6)
T40E8 001:769.346 - 0.008ms returns 0x00000000
T40E8 001:769.353 JLINK_ReadReg(R7)
T40E8 001:769.358 - 0.008ms returns 0x00000000
T40E8 001:769.365 JLINK_ReadReg(R8)
T40E8 001:769.371 - 0.008ms returns 0x00000000
T40E8 001:769.378 JLINK_ReadReg(R9)
T40E8 001:769.384 - 0.008ms returns 0x20000160
T40E8 001:769.391 JLINK_ReadReg(R10)
T40E8 001:769.397 - 0.008ms returns 0x08004250
T40E8 001:769.405 JLINK_ReadReg(R11)
T40E8 001:769.412 - 0.010ms returns 0x00000000
T40E8 001:769.421 JLINK_ReadReg(R12)
T40E8 001:769.430 - 0.012ms returns 0x20000270
T40E8 001:769.440 JLINK_ReadReg(R13 (SP))
T40E8 001:769.450 - 0.015ms returns 0x20000890
T40E8 001:769.462 JLINK_ReadReg(R14)
T40E8 001:769.476 - 0.016ms returns 0x08000267
T40E8 001:769.484 JLINK_ReadReg(R15 (PC))
T40E8 001:769.489 - 0.008ms returns 0x08000276
T40E8 001:769.496 JLINK_ReadReg(XPSR)
T40E8 001:769.504 - 0.010ms returns 0x61000000
T40E8 001:769.511 JLINK_ReadReg(MSP)
T40E8 001:769.516 - 0.008ms returns 0x20000890
T40E8 001:769.524 JLINK_ReadReg(PSP)
T40E8 001:769.530 - 0.008ms returns 0x20001000
T40E8 001:769.537 JLINK_ReadReg(CFBP)
T40E8 001:769.542 - 0.008ms returns 0x00000000
T0928 001:772.611 JLINK_ReadMemU32(0xE0001004, 0x0001 Items, ...)
T0928 001:772.643   CPU_ReadMem(4 bytes @ 0xE0001004)
T0928 001:773.173   Data:  DF 1D 00 00
T0928 001:773.186    - DWT_CYCCNT
T0928 001:773.194 - 0.586ms returns 1
T0928 001:773.334   JLINK_ReadMemEx(0x40012C00, 0x0010 Bytes, ..., Flags = 0x02000004)
T0928 001:773.355   CPU_ReadMem(16 bytes @ 0x40012C00)
T0928 001:773.901   Data:  00 00 00 00 00 00 00 00 00 00 00 00 00 00 00 00
T0928 001:773.911 - 0.580ms returns 0x10
T0928 001:773.921   JLINK_ReadMemEx(0x40012C10, 0x0004 Bytes, ..., Flags = 0x02000004)
T0928 001:773.932   CPU_ReadMem(4 bytes @ 0x40012C10)
T0928 001:774.347   Data:  00 00 00 00
T0928 001:774.364 - 0.446ms returns 0x04
T0928 001:774.379   JLINK_ReadMemEx(0x40012C18, 0x0014 Bytes, ..., Flags = 0x02000004)
T0928 001:774.392   CPU_ReadMem(20 bytes @ 0x40012C18)
T0928 001:774.973   Data:  00 00 00 00 00 00 00 00 00 00 00 00 00 00 00 00 ...
T0928 001:774.990 - 0.617ms returns 0x14
T0928 001:775.007   JLINK_ReadMemEx(0x40012C2C, 0x0004 Bytes, ..., Flags = 0x02000004)
T0928 001:775.025   CPU_ReadMem(4 bytes @ 0x40012C2C)
T0928 001:775.503   Data:  00 00 00 00
T0928 001:775.515 - 0.511ms returns 0x04
T0928 001:775.525   JLINK_ReadMemEx(0x40012C30, 0x0004 Bytes, ..., Flags = 0x02000004)
T0928 001:775.544   CPU_ReadMem(4 bytes @ 0x40012C30)
T0928 001:775.966   Data:  00 00 00 00
T0928 001:775.976 - 0.454ms returns 0x04
T0928 001:775.991   JLINK_ReadMemEx(0x40012C34, 0x000C Bytes, ..., Flags = 0x02000004)
T0928 001:776.008   CPU_ReadMem(12 bytes @ 0x40012C34)
T0928 001:776.505   Data:  00 00 00 00 00 00 00 00 00 00 00 00
T0928 001:776.520 - 0.535ms returns 0x0C
T0928 001:776.534   JLINK_ReadMemEx(0x40012C40, 0x0004 Bytes, ..., Flags = 0x02000004)
T0928 001:776.545   CPU_ReadMem(4 bytes @ 0x40012C40)
T0928 001:776.961   Data:  00 00 00 00
T0928 001:776.980 - 0.450ms returns 0x04
T0928 001:776.994   JLINK_ReadMemEx(0x40012C44, 0x0004 Bytes, ..., Flags = 0x02000004)
T0928 001:777.011   CPU_ReadMem(4 bytes @ 0x40012C44)
T0928 001:777.507   Data:  00 00 00 00
T0928 001:777.521 - 0.531ms returns 0x04
T0928 001:777.532   JLINK_ReadMemEx(0x40012C48, 0x0004 Bytes, ..., Flags = 0x02000004)
T0928 001:777.543   CPU_ReadMem(4 bytes @ 0x40012C48)
T0928 001:777.954   Data:  00 00 00 00
T0928 001:777.966 - 0.437ms returns 0x04
T0928 001:777.976   JLINK_ReadMemEx(0x40012C4C, 0x0004 Bytes, ..., Flags = 0x02000004)
T0928 001:777.987   CPU_ReadMem(4 bytes @ 0x40012C4C)
T0928 001:778.497   Data:  00 00 00 00
T0928 001:778.509 - 0.536ms returns 0x04
T0928 001:781.253   JLINK_ReadMemEx(0x08000276, 0x0002 Bytes, ..., Flags = 0x02000000)
T0928 001:781.284   CPU_ReadMem(64 bytes @ 0x08000240)
T0928 001:782.337    -- Updating C cache (64 bytes @ 0x08000240)
T0928 001:782.350    -- Read from C cache (2 bytes @ 0x08000276)
T0928 001:782.359   Data:  00 F0
T0928 001:782.367 - 1.117ms returns 0x02
T0928 001:782.379   JLINK_ReadMemEx(0x08000278, 0x003C Bytes, ..., Flags = 0x02000000)
T0928 001:782.390   CPU_ReadMem(64 bytes @ 0x08000280)
T0928 001:783.502    -- Updating C cache (64 bytes @ 0x08000280)
T0928 001:783.517    -- Read from C cache (60 bytes @ 0x08000278)
T0928 001:783.526   Data:  9D F9 00 F0 1C FA 4F F4 A0 60 01 F0 FF FB 00 F0 ...
T0928 001:783.534 - 1.158ms returns 0x3C
T0928 001:783.545   JLINK_ReadMemEx(0x08000278, 0x0002 Bytes, ..., Flags = 0x02000000)
T0928 001:783.554    -- Read from C cache (2 bytes @ 0x08000278)
T0928 001:783.565   Data:  9D F9
T0928 001:783.575 - 0.033ms returns 0x02
T0928 001:783.607   JLINK_ReadMemEx(0x0800027A, 0x0002 Bytes, ..., Flags = 0x02000000)
T0928 001:783.622    -- Read from C cache (2 bytes @ 0x0800027A)
T0928 001:783.631   Data:  00 F0
T0928 001:783.639 - 0.034ms returns 0x02
T0928 001:783.646   JLINK_ReadMemEx(0x0800027C, 0x003C Bytes, ..., Flags = 0x02000000)
T0928 001:783.655    -- Read from C cache (60 bytes @ 0x0800027C)
T0928 001:783.664   Data:  1C FA 4F F4 A0 60 01 F0 FF FB 00 F0 27 FB 01 E0 ...
T0928 001:783.672 - 0.028ms returns 0x3C
T0928 001:783.679   JLINK_ReadMemEx(0x0800027C, 0x0002 Bytes, ..., Flags = 0x02000000)
T0928 001:783.687    -- Read from C cache (2 bytes @ 0x0800027C)
T0928 001:783.695   Data:  1C FA
T0928 001:783.703 - 0.027ms returns 0x02
T40E8 010:281.243   JLINK_ReadMemEx(0x08000276, 0x0002 Bytes, ..., Flags = 0x02000000)
T40E8 010:281.314    -- Read from C cache (2 bytes @ 0x08000276)
T40E8 010:281.333   Data:  00 F0
T40E8 010:281.351 - 0.116ms returns 0x02
T40E8 010:281.380 JLINK_Go()
T40E8 010:281.922   CPU_ReadMem(4 bytes @ 0xE0001000)
T40E8 010:282.424   CPU_WriteMem(4 bytes @ 0xE0002008)
T40E8 010:283.611 - 2.244ms
T40E8 010:384.060 JLINK_IsHalted()
T40E8 010:384.624 - 0.587ms returns FALSE
T40E8 010:484.911 JLINK_IsHalted()
T40E8 010:485.413 - 0.519ms returns FALSE
T40E8 010:585.704 JLINK_IsHalted()
T40E8 010:586.252 - 0.562ms returns FALSE
T40E8 010:687.024 JLINK_IsHalted()
T40E8 010:687.579 - 0.570ms returns FALSE
T40E8 010:788.338 JLINK_IsHalted()
T40E8 010:788.889 - 0.567ms returns FALSE
T40E8 010:889.132 JLINK_IsHalted()
T40E8 010:889.683 - 0.562ms returns FALSE
T40E8 010:989.927 JLINK_IsHalted()
T40E8 010:990.438 - 0.521ms returns FALSE
T40E8 011:091.243 JLINK_IsHalted()
T40E8 011:091.791 - 0.563ms returns FALSE
T40E8 011:192.043 JLINK_IsHalted()
T40E8 011:192.602 - 0.575ms returns FALSE
T40E8 011:293.357 JLINK_IsHalted()
T40E8 011:293.906 - 0.563ms returns FALSE
T40E8 011:394.300 JLINK_IsHalted()
T40E8 011:394.816 - 0.535ms returns FALSE
T40E8 011:495.585 JLINK_IsHalted()
T40E8 011:496.139 - 0.564ms returns FALSE
T40E8 011:596.319 JLINK_IsHalted()
T40E8 011:596.834 - 0.532ms returns FALSE
T40E8 011:697.552 JLINK_IsHalted()
T40E8 011:698.023 - 0.492ms returns FALSE
T40E8 011:798.433 JLINK_IsHalted()
T40E8 011:799.004 - 0.583ms returns FALSE
T40E8 011:899.725 JLINK_IsHalted()
T40E8 011:900.326 - 0.612ms returns FALSE
T40E8 012:001.045 JLINK_IsHalted()
T40E8 012:001.614 - 0.578ms returns FALSE
T40E8 012:102.359 JLINK_IsHalted()
T40E8 012:102.886 - 0.543ms returns FALSE
T40E8 012:203.089 JLINK_IsHalted()
T40E8 012:203.658 - 0.586ms returns FALSE
T40E8 012:304.337 JLINK_IsHalted()
T40E8 012:304.900 - 0.582ms returns FALSE
T40E8 012:405.613 JLINK_IsHalted()
T40E8 012:406.231 - 0.630ms returns FALSE
T40E8 012:506.467 JLINK_IsHalted()
T40E8 012:507.020 - 0.571ms returns FALSE
T40E8 012:607.734 JLINK_IsHalted()
T40E8 012:608.282 - 0.563ms returns FALSE
T40E8 012:709.064 JLINK_IsHalted()
T40E8 012:709.606 - 0.558ms returns FALSE
T40E8 012:810.383 JLINK_IsHalted()
T40E8 012:810.928 - 0.556ms returns FALSE
T40E8 012:911.687 JLINK_IsHalted()
T40E8 012:912.232 - 0.562ms returns FALSE
T40E8 013:013.021 JLINK_IsHalted()
T40E8 013:013.583 - 0.581ms returns FALSE
T40E8 013:113.839 JLINK_IsHalted()
T40E8 013:114.380 - 0.551ms returns FALSE
T40E8 013:215.156 JLINK_IsHalted()
T40E8 013:215.700 - 0.555ms returns FALSE
T40E8 013:316.401 JLINK_IsHalted()
T40E8 013:316.956 - 0.572ms returns FALSE
T40E8 013:417.736 JLINK_IsHalted()
T40E8 013:418.277 - 0.552ms returns FALSE
T40E8 013:518.510 JLINK_IsHalted()
T40E8 013:519.060 - 0.561ms returns FALSE
T40E8 013:619.820 JLINK_IsHalted()
T40E8 013:620.379 - 0.576ms returns FALSE
T40E8 013:720.590 JLINK_IsHalted()
T40E8 013:721.139 - 0.560ms returns FALSE
T40E8 013:821.777 JLINK_IsHalted()
T40E8 013:822.260 - 0.499ms returns FALSE
T40E8 013:923.018 JLINK_IsHalted()
T40E8 013:923.537 - 0.536ms returns FALSE
T40E8 014:024.365 JLINK_IsHalted()
T40E8 014:024.934 - 0.581ms returns FALSE
T40E8 014:125.165 JLINK_IsHalted()
T40E8 014:125.691 - 0.550ms returns FALSE
T40E8 014:226.035 JLINK_Halt()
T40E8 014:230.633 - 4.618ms returns 0x00
T40E8 014:230.667 JLINK_IsHalted()
T40E8 014:230.679 - 0.018ms returns TRUE
T40E8 014:230.695 JLINK_IsHalted()
T40E8 014:230.707 - 0.017ms returns TRUE
T40E8 014:230.721 JLINK_IsHalted()
T40E8 014:230.733 - 0.017ms returns TRUE
T40E8 014:230.753 JLINK_ReadReg(R15 (PC))
T40E8 014:230.769 - 0.022ms returns 0x0800070A
T40E8 014:230.784 JLINK_ReadReg(XPSR)
T40E8 014:230.797 - 0.018ms returns 0x81000000
T40E8 014:230.823 JLINK_ReadMemU32(0xE000ED30, 0x0001 Items, ...)
T40E8 014:230.844   CPU_ReadMem(4 bytes @ 0xE000ED30)
T40E8 014:231.464   Data:  01 00 00 00
T40E8 014:231.492 - 0.675ms returns 1
T40E8 014:231.512 JLINK_ReadMemU32(0xE0001028, 0x0001 Items, ...)
T40E8 014:231.535   CPU_ReadMem(4 bytes @ 0xE0001028)
T40E8 014:232.028   Data:  00 00 00 00
T40E8 014:232.051    - DWT_FUNC[0]
T40E8 014:232.084 - 0.578ms returns 1
T40E8 014:232.104 JLINK_ReadMemU32(0xE0001038, 0x0001 Items, ...)
T40E8 014:232.124   CPU_ReadMem(4 bytes @ 0xE0001038)
T40E8 014:232.604   Data:  00 02 00 00
T40E8 014:232.631    - DWT_FUNC[1]
T40E8 014:232.648 - 0.550ms returns 1
T40E8 014:232.668 JLINK_ReadMemU32(0xE0001048, 0x0001 Items, ...)
T40E8 014:232.690   CPU_ReadMem(4 bytes @ 0xE0001048)
T40E8 014:233.191   Data:  00 00 00 00
T40E8 014:233.213    - DWT_FUNC[2]
T40E8 014:233.229 - 0.567ms returns 1
T40E8 014:233.247 JLINK_ReadMemU32(0xE0001058, 0x0001 Items, ...)
T40E8 014:233.265   CPU_ReadMem(4 bytes @ 0xE0001058)
T40E8 014:233.755   Data:  00 00 00 00
T40E8 014:233.779    - DWT_FUNC[3]
T40E8 014:233.796 - 0.554ms returns 1
T40E8 014:233.876 JLINK_ReadReg(R0)
T40E8 014:233.893 - 0.023ms returns 0x00000001
T40E8 014:233.909 JLINK_ReadReg(R1)
T40E8 014:233.922 - 0.018ms returns 0x00000001
T40E8 014:233.943 JLINK_ReadReg(R2)
T40E8 014:233.957 - 0.020ms returns 0x20000020
T40E8 014:233.972 JLINK_ReadReg(R3)
T40E8 014:233.984 - 0.018ms returns 0x00000007
T40E8 014:233.999 JLINK_ReadReg(R4)
T40E8 014:234.011 - 0.018ms returns 0x00000001
T40E8 014:234.026 JLINK_ReadReg(R5)
T40E8 014:234.038 - 0.017ms returns 0x00000F67
T40E8 014:234.053 JLINK_ReadReg(R6)
T40E8 014:234.065 - 0.018ms returns 0x00000000
T40E8 014:234.080 JLINK_ReadReg(R7)
T40E8 014:234.092 - 0.018ms returns 0x00000000
T40E8 014:234.107 JLINK_ReadReg(R8)
T40E8 014:234.119 - 0.018ms returns 0x00000000
T40E8 014:234.134 JLINK_ReadReg(R9)
T40E8 014:234.146 - 0.017ms returns 0x20000160
T40E8 014:234.161 JLINK_ReadReg(R10)
T40E8 014:234.173 - 0.018ms returns 0x08004250
T40E8 014:234.188 JLINK_ReadReg(R11)
T40E8 014:234.200 - 0.018ms returns 0x00000000
T40E8 014:234.215 JLINK_ReadReg(R12)
T40E8 014:234.227 - 0.017ms returns 0x000000FF
T40E8 014:234.242 JLINK_ReadReg(R13 (SP))
T40E8 014:234.254 - 0.018ms returns 0x20000880
T40E8 014:234.269 JLINK_ReadReg(R14)
T40E8 014:234.281 - 0.018ms returns 0x0800070F
T40E8 014:234.296 JLINK_ReadReg(R15 (PC))
T40E8 014:234.309 - 0.018ms returns 0x0800070A
T40E8 014:234.324 JLINK_ReadReg(XPSR)
T40E8 014:234.335 - 0.018ms returns 0x81000000
T40E8 014:234.351 JLINK_ReadReg(MSP)
T40E8 014:234.363 - 0.017ms returns 0x20000880
T40E8 014:234.378 JLINK_ReadReg(PSP)
T40E8 014:234.390 - 0.018ms returns 0x20001000
T40E8 014:234.405 JLINK_ReadReg(CFBP)
T40E8 014:234.417 - 0.018ms returns 0x00000000
T0928 014:239.284   JLINK_ReadMemEx(0x2000088C, 0x0004 Bytes, ..., Flags = 0x02000000)
T0928 014:239.322   CPU_ReadMem(64 bytes @ 0x20000880)
T0928 014:240.417    -- Updating C cache (64 bytes @ 0x20000880)
T0928 014:240.445    -- Read from C cache (4 bytes @ 0x2000088C)
T0928 014:240.464   Data:  91 02 00 08
T0928 014:240.481 - 1.204ms returns 0x04
T0928 014:240.621   JLINK_ReadMemEx(0x20000880, 0x0004 Bytes, ..., Flags = 0x02000000)
T0928 014:240.646    -- Read from C cache (4 bytes @ 0x20000880)
T0928 014:240.663   Data:  00 00 00 00
T0928 014:240.680 - 0.065ms returns 0x04
T0928 014:240.697   JLINK_ReadMemEx(0x20000884, 0x0004 Bytes, ..., Flags = 0x02000000)
T0928 014:240.715    -- Read from C cache (4 bytes @ 0x20000884)
T0928 014:240.802   Data:  30 02 00 20
T0928 014:240.820 - 0.130ms returns 0x04
T0928 014:240.838   JLINK_ReadMemEx(0x20000888, 0x0004 Bytes, ..., Flags = 0x02000000)
T0928 014:240.858    -- Read from C cache (4 bytes @ 0x20000888)
T0928 014:240.875   Data:  00 00 00 00
T0928 014:240.891 - 0.060ms returns 0x04
T0928 014:240.908   JLINK_ReadMemEx(0x2000088C, 0x0004 Bytes, ..., Flags = 0x02000000)
T0928 014:240.932    -- Read from C cache (4 bytes @ 0x2000088C)
T0928 014:240.950   Data:  91 02 00 08
T0928 014:240.967 - 0.065ms returns 0x04
T0928 014:248.173 JLINK_ReadMemU32(0xE0001004, 0x0001 Items, ...)
T0928 014:248.211   CPU_ReadMem(4 bytes @ 0xE0001004)
T0928 014:248.721   Data:  8D 2E EC 10
T0928 014:248.748    - DWT_CYCCNT
T0928 014:248.764 - 0.597ms returns 1
T0928 014:249.007   JLINK_ReadMemEx(0x40012C00, 0x0010 Bytes, ..., Flags = 0x02000004)
T0928 014:249.037   CPU_ReadMem(16 bytes @ 0x40012C00)
T0928 014:249.661   Data:  00 00 00 00 00 00 00 00 00 00 00 00 00 00 00 00
T0928 014:249.685 - 0.685ms returns 0x10
T0928 014:249.708   JLINK_ReadMemEx(0x40012C10, 0x0004 Bytes, ..., Flags = 0x02000004)
T0928 014:249.733   CPU_ReadMem(4 bytes @ 0x40012C10)
T0928 014:250.238   Data:  00 00 00 00
T0928 014:250.260 - 0.559ms returns 0x04
T0928 014:250.281   JLINK_ReadMemEx(0x40012C18, 0x0014 Bytes, ..., Flags = 0x02000004)
T0928 014:250.303   CPU_ReadMem(20 bytes @ 0x40012C18)
T0928 014:250.965   Data:  00 00 00 00 00 00 00 00 00 00 00 00 00 00 00 00 ...
T0928 014:250.987 - 0.712ms returns 0x14
T0928 014:251.007   JLINK_ReadMemEx(0x40012C2C, 0x0004 Bytes, ..., Flags = 0x02000004)
T0928 014:251.029   CPU_ReadMem(4 bytes @ 0x40012C2C)
T0928 014:251.584   Data:  00 00 00 00
T0928 014:251.604 - 0.604ms returns 0x04
T0928 014:251.624   JLINK_ReadMemEx(0x40012C30, 0x0004 Bytes, ..., Flags = 0x02000004)
T0928 014:251.645   CPU_ReadMem(4 bytes @ 0x40012C30)
T0928 014:252.083   Data:  00 00 00 00
T0928 014:252.103 - 0.485ms returns 0x04
T0928 014:252.122   JLINK_ReadMemEx(0x40012C34, 0x000C Bytes, ..., Flags = 0x02000004)
T0928 014:252.142   CPU_ReadMem(12 bytes @ 0x40012C34)
T0928 014:252.710   Data:  00 00 00 00 00 00 00 00 00 00 00 00
T0928 014:252.728 - 0.612ms returns 0x0C
T0928 014:252.747   JLINK_ReadMemEx(0x40012C40, 0x0004 Bytes, ..., Flags = 0x02000004)
T0928 014:252.767   CPU_ReadMem(4 bytes @ 0x40012C40)
T0928 014:253.257   Data:  00 00 00 00
T0928 014:253.277 - 0.536ms returns 0x04
T0928 014:253.296   JLINK_ReadMemEx(0x40012C44, 0x0004 Bytes, ..., Flags = 0x02000004)
T0928 014:253.316   CPU_ReadMem(4 bytes @ 0x40012C44)
T0928 014:253.807   Data:  00 00 00 00
T0928 014:253.826 - 0.536ms returns 0x04
T0928 014:253.844   JLINK_ReadMemEx(0x40012C48, 0x0004 Bytes, ..., Flags = 0x02000004)
T0928 014:253.863   CPU_ReadMem(4 bytes @ 0x40012C48)
T0928 014:254.363   Data:  00 00 00 00
T0928 014:254.388 - 0.550ms returns 0x04
T0928 014:254.410   JLINK_ReadMemEx(0x40012C4C, 0x0004 Bytes, ..., Flags = 0x02000004)
T0928 014:254.435   CPU_ReadMem(4 bytes @ 0x40012C4C)
T0928 014:254.924   Data:  00 00 00 00
T0928 014:254.946 - 0.543ms returns 0x04
T0928 014:258.306   JLINK_ReadMemEx(0x0800070A, 0x0002 Bytes, ..., Flags = 0x02000000)
T0928 014:258.344   CPU_ReadMem(64 bytes @ 0x08000700)
T0928 014:259.467    -- Updating C cache (64 bytes @ 0x08000700)
T0928 014:259.492    -- Read from C cache (2 bytes @ 0x0800070A)
T0928 014:259.509   Data:  FF F7
T0928 014:259.525 - 1.226ms returns 0x02
T0928 014:259.545   JLINK_ReadMemEx(0x0800070C, 0x003C Bytes, ..., Flags = 0x02000000)
T0928 014:259.566   CPU_ReadMem(64 bytes @ 0x08000740)
T0928 014:260.682    -- Updating C cache (64 bytes @ 0x08000740)
T0928 014:260.702    -- Read from C cache (60 bytes @ 0x0800070C)
T0928 014:260.720   Data:  94 FF 05 46 04 EB 44 00 13 49 01 EB 80 00 80 68 ...
T0928 014:260.736 - 1.197ms returns 0x3C
T0928 014:260.754   JLINK_ReadMemEx(0x0800070C, 0x0002 Bytes, ..., Flags = 0x02000000)
T0928 014:260.771    -- Read from C cache (2 bytes @ 0x0800070C)
T0928 014:260.787   Data:  94 FF
T0928 014:260.812 - 0.064ms returns 0x02
T0928 014:260.855   JLINK_ReadMemEx(0x0800070E, 0x0002 Bytes, ..., Flags = 0x02000000)
T0928 014:260.892    -- Read from C cache (2 bytes @ 0x0800070E)
T0928 014:260.910   Data:  05 46
T0928 014:260.926 - 0.077ms returns 0x02
T0928 014:260.942   JLINK_ReadMemEx(0x08000710, 0x003C Bytes, ..., Flags = 0x02000000)
T0928 014:260.959    -- Read from C cache (60 bytes @ 0x08000710)
T0928 014:260.976   Data:  04 EB 44 00 13 49 01 EB 80 00 80 68 28 1A 04 EB ...
T0928 014:260.992 - 0.055ms returns 0x3C
T0928 014:261.007   JLINK_ReadMemEx(0x08000710, 0x0002 Bytes, ..., Flags = 0x02000000)
T0928 014:261.023    -- Read from C cache (2 bytes @ 0x08000710)
T0928 014:261.039   Data:  04 EB
T0928 014:261.055 - 0.054ms returns 0x02
T40E8 017:001.483   JLINK_ReadMemEx(0x0800070A, 0x0002 Bytes, ..., Flags = 0x02000000)
T40E8 017:001.542    -- Read from C cache (2 bytes @ 0x0800070A)
T40E8 017:001.568   Data:  FF F7
T40E8 017:001.587 - 0.112ms returns 0x02
T40E8 017:001.618 JLINK_Go()
T40E8 017:002.228   CPU_ReadMem(4 bytes @ 0xE0001000)
T40E8 017:003.392 - 1.788ms
T40E8 017:103.718 JLINK_IsHalted()
T40E8 017:104.289 - 0.590ms returns FALSE
T40E8 017:204.962 JLINK_IsHalted()
T40E8 017:205.586 - 0.641ms returns FALSE
T40E8 017:306.277 JLINK_IsHalted()
T40E8 017:306.858 - 0.598ms returns FALSE
T40E8 017:407.589 JLINK_IsHalted()
T40E8 017:408.122 - 0.557ms returns FALSE
T40E8 017:508.652 JLINK_IsHalted()
T40E8 017:509.196 - 0.563ms returns FALSE
T40E8 017:609.377 JLINK_IsHalted()
T40E8 017:609.891 - 0.532ms returns FALSE
T40E8 017:710.113 JLINK_IsHalted()
T40E8 017:710.667 - 0.574ms returns FALSE
T40E8 017:810.907 JLINK_IsHalted()
T40E8 017:811.465 - 0.575ms returns FALSE
T40E8 017:911.675 JLINK_IsHalted()
T40E8 017:912.234 - 0.575ms returns FALSE
T40E8 018:012.561 JLINK_IsHalted()
T40E8 018:013.119 - 0.576ms returns FALSE
T40E8 018:113.360 JLINK_IsHalted()
T40E8 018:113.832 - 0.488ms returns FALSE
T40E8 018:214.124 JLINK_IsHalted()
T40E8 018:214.647 - 0.539ms returns FALSE
T40E8 018:315.509 JLINK_IsHalted()
T40E8 018:316.064 - 0.565ms returns FALSE
T40E8 018:416.965 JLINK_IsHalted()
T40E8 018:417.587 - 0.641ms returns FALSE
T40E8 018:517.682 JLINK_IsHalted()
T40E8 018:518.227 - 0.559ms returns FALSE
T40E8 018:619.086 JLINK_IsHalted()
T40E8 018:619.645 - 0.570ms returns FALSE
T40E8 018:720.064 JLINK_IsHalted()
T40E8 018:720.605 - 0.551ms returns FALSE
T40E8 018:821.437 JLINK_IsHalted()
T40E8 018:821.952 - 0.530ms returns FALSE
T40E8 018:922.743 JLINK_IsHalted()
T40E8 018:923.286 - 0.556ms returns FALSE
T40E8 019:023.472 JLINK_IsHalted()
T40E8 019:023.994 - 0.538ms returns FALSE
T40E8 019:124.322 JLINK_Halt()
T40E8 019:128.992 - 4.683ms returns 0x00
T40E8 019:129.018 JLINK_IsHalted()
T40E8 019:129.030 - 0.017ms returns TRUE
T40E8 019:129.045 JLINK_IsHalted()
T40E8 019:129.055 - 0.016ms returns TRUE
T40E8 019:129.070 JLINK_IsHalted()
T40E8 019:129.080 - 0.016ms returns TRUE
T40E8 019:129.099 JLINK_ReadReg(R15 (PC))
T40E8 019:129.114 - 0.020ms returns 0x08000638
T40E8 019:129.129 JLINK_ReadReg(XPSR)
T40E8 019:129.141 - 0.017ms returns 0x81000000
T40E8 019:129.165 JLINK_ReadMemU32(0xE000ED30, 0x0001 Items, ...)
T40E8 019:129.186   CPU_ReadMem(4 bytes @ 0xE000ED30)
T40E8 019:129.689   Data:  01 00 00 00
T40E8 019:129.709 - 0.549ms returns 1
T40E8 019:129.726 JLINK_ReadMemU32(0xE0001028, 0x0001 Items, ...)
T40E8 019:129.742   CPU_ReadMem(4 bytes @ 0xE0001028)
T40E8 019:130.250   Data:  00 00 00 00
T40E8 019:130.279    - DWT_FUNC[0]
T40E8 019:130.295 - 0.574ms returns 1
T40E8 019:130.314 JLINK_ReadMemU32(0xE0001038, 0x0001 Items, ...)
T40E8 019:130.335   CPU_ReadMem(4 bytes @ 0xE0001038)
T40E8 019:130.853   Data:  00 02 00 00
T40E8 019:130.875    - DWT_FUNC[1]
T40E8 019:130.891 - 0.582ms returns 1
T40E8 019:130.908 JLINK_ReadMemU32(0xE0001048, 0x0001 Items, ...)
T40E8 019:130.925   CPU_ReadMem(4 bytes @ 0xE0001048)
T40E8 019:131.368   Data:  00 00 00 00
T40E8 019:131.388    - DWT_FUNC[2]
T40E8 019:131.403 - 0.506ms returns 1
T40E8 019:131.428 JLINK_ReadMemU32(0xE0001058, 0x0001 Items, ...)
T40E8 019:131.444   CPU_ReadMem(4 bytes @ 0xE0001058)
T40E8 019:131.926   Data:  00 00 00 00
T40E8 019:131.948    - DWT_FUNC[3]
T40E8 019:131.964 - 0.541ms returns 1
T40E8 019:132.040 JLINK_ReadReg(R0)
T40E8 019:132.057 - 0.023ms returns 0x20000018
T40E8 019:132.072 JLINK_ReadReg(R1)
T40E8 019:132.083 - 0.017ms returns 0x00000001
T40E8 019:132.097 JLINK_ReadReg(R2)
T40E8 019:132.109 - 0.017ms returns 0x20000020
T40E8 019:132.123 JLINK_ReadReg(R3)
T40E8 019:132.135 - 0.017ms returns 0x00000007
T40E8 019:132.149 JLINK_ReadReg(R4)
T40E8 019:132.160 - 0.017ms returns 0x00000001
T40E8 019:132.174 JLINK_ReadReg(R5)
T40E8 019:132.186 - 0.017ms returns 0x000017B0
T40E8 019:132.200 JLINK_ReadReg(R6)
T40E8 019:132.211 - 0.020ms returns 0x00000000
T40E8 019:132.230 JLINK_ReadReg(R7)
T40E8 019:132.247 - 0.022ms returns 0x00000000
T40E8 019:132.262 JLINK_ReadReg(R8)
T40E8 019:132.273 - 0.017ms returns 0x00000000
T40E8 019:132.287 JLINK_ReadReg(R9)
T40E8 019:132.299 - 0.017ms returns 0x20000160
T40E8 019:132.313 JLINK_ReadReg(R10)
T40E8 019:132.324 - 0.016ms returns 0x08004250
T40E8 019:132.338 JLINK_ReadReg(R11)
T40E8 019:132.350 - 0.017ms returns 0x00000000
T40E8 019:132.364 JLINK_ReadReg(R12)
T40E8 019:132.375 - 0.017ms returns 0x000000FF
T40E8 019:132.390 JLINK_ReadReg(R13 (SP))
T40E8 019:132.401 - 0.017ms returns 0x20000880
T40E8 019:132.416 JLINK_ReadReg(R14)
T40E8 019:132.427 - 0.017ms returns 0x0800070F
T40E8 019:132.441 JLINK_ReadReg(R15 (PC))
T40E8 019:132.453 - 0.017ms returns 0x08000638
T40E8 019:132.467 JLINK_ReadReg(XPSR)
T40E8 019:132.479 - 0.017ms returns 0x81000000
T40E8 019:132.493 JLINK_ReadReg(MSP)
T40E8 019:132.505 - 0.017ms returns 0x20000880
T40E8 019:132.519 JLINK_ReadReg(PSP)
T40E8 019:132.530 - 0.017ms returns 0x20001000
T40E8 019:132.544 JLINK_ReadReg(CFBP)
T40E8 019:132.556 - 0.017ms returns 0x00000000
T0928 019:132.992   JLINK_ReadMemEx(0x2000088C, 0x0004 Bytes, ..., Flags = 0x02000000)
T0928 019:133.022   CPU_ReadMem(64 bytes @ 0x20000880)
T0928 019:134.250    -- Updating C cache (64 bytes @ 0x20000880)
T0928 019:134.278    -- Read from C cache (4 bytes @ 0x2000088C)
T0928 019:134.295   Data:  91 02 00 08
T0928 019:134.311 - 1.325ms returns 0x04
T0928 019:134.336   JLINK_ReadMemEx(0x20000880, 0x0004 Bytes, ..., Flags = 0x02000000)
T0928 019:134.358    -- Read from C cache (4 bytes @ 0x20000880)
T0928 019:134.375   Data:  00 00 00 00
T0928 019:134.390 - 0.061ms returns 0x04
T0928 019:134.406   JLINK_ReadMemEx(0x20000884, 0x0004 Bytes, ..., Flags = 0x02000000)
T0928 019:134.424    -- Read from C cache (4 bytes @ 0x20000884)
T0928 019:134.440   Data:  30 02 00 20
T0928 019:134.456 - 0.055ms returns 0x04
T0928 019:134.471   JLINK_ReadMemEx(0x20000888, 0x0004 Bytes, ..., Flags = 0x02000000)
T0928 019:134.488    -- Read from C cache (4 bytes @ 0x20000888)
T0928 019:134.504   Data:  00 00 00 00
T0928 019:134.520 - 0.055ms returns 0x04
T0928 019:134.535   JLINK_ReadMemEx(0x2000088C, 0x0004 Bytes, ..., Flags = 0x02000000)
T0928 019:134.552    -- Read from C cache (4 bytes @ 0x2000088C)
T0928 019:134.568   Data:  91 02 00 08
T0928 019:134.584 - 0.055ms returns 0x04
T0928 019:140.324 JLINK_ReadMemU32(0xE0001004, 0x0001 Items, ...)
T0928 019:140.357   CPU_ReadMem(4 bytes @ 0xE0001004)
T0928 019:140.889   Data:  FA FB 06 1A
T0928 019:140.916    - DWT_CYCCNT
T0928 019:140.931 - 0.613ms returns 1
T0928 019:141.131   JLINK_ReadMemEx(0x40012C00, 0x0010 Bytes, ..., Flags = 0x02000004)
T0928 019:141.161   CPU_ReadMem(16 bytes @ 0x40012C00)
T0928 019:141.801   Data:  00 00 00 00 00 00 00 00 00 00 00 00 00 00 00 00
T0928 019:141.826 - 0.701ms returns 0x10
T0928 019:141.853   JLINK_ReadMemEx(0x40012C10, 0x0004 Bytes, ..., Flags = 0x02000004)
T0928 019:141.878   CPU_ReadMem(4 bytes @ 0x40012C10)
T0928 019:142.343   Data:  00 00 00 00
T0928 019:142.365 - 0.519ms returns 0x04
T0928 019:142.390   JLINK_ReadMemEx(0x40012C18, 0x0014 Bytes, ..., Flags = 0x02000004)
T0928 019:142.419   CPU_ReadMem(20 bytes @ 0x40012C18)
T0928 019:143.124   Data:  00 00 00 00 00 00 00 00 00 00 00 00 00 00 00 00 ...
T0928 019:143.143 - 0.760ms returns 0x14
T0928 019:143.165   JLINK_ReadMemEx(0x40012C2C, 0x0004 Bytes, ..., Flags = 0x02000004)
T0928 019:143.205   CPU_ReadMem(4 bytes @ 0x40012C2C)
T0928 019:143.662   Data:  00 00 00 00
T0928 019:143.685 - 0.525ms returns 0x04
T0928 019:143.709   JLINK_ReadMemEx(0x40012C30, 0x0004 Bytes, ..., Flags = 0x02000004)
T0928 019:143.733   CPU_ReadMem(4 bytes @ 0x40012C30)
T0928 019:144.239   Data:  00 00 00 00
T0928 019:144.259 - 0.557ms returns 0x04
T0928 019:144.281   JLINK_ReadMemEx(0x40012C34, 0x000C Bytes, ..., Flags = 0x02000004)
T0928 019:144.303   CPU_ReadMem(12 bytes @ 0x40012C34)
T0928 019:144.865   Data:  00 00 00 00 00 00 00 00 00 00 00 00
T0928 019:144.887 - 0.612ms returns 0x0C
T0928 019:144.912   JLINK_ReadMemEx(0x40012C40, 0x0004 Bytes, ..., Flags = 0x02000004)
T0928 019:144.935   CPU_ReadMem(4 bytes @ 0x40012C40)
T0928 019:145.392   Data:  00 00 00 00
T0928 019:145.413 - 0.507ms returns 0x04
T0928 019:145.436   JLINK_ReadMemEx(0x40012C44, 0x0004 Bytes, ..., Flags = 0x02000004)
T0928 019:145.457   CPU_ReadMem(4 bytes @ 0x40012C44)
T0928 019:145.961   Data:  00 00 00 00
T0928 019:145.980 - 0.551ms returns 0x04
T0928 019:146.002   JLINK_ReadMemEx(0x40012C48, 0x0004 Bytes, ..., Flags = 0x02000004)
T0928 019:146.022   CPU_ReadMem(4 bytes @ 0x40012C48)
T0928 019:146.566   Data:  00 00 00 00
T0928 019:146.590 - 0.594ms returns 0x04
T0928 019:146.615   JLINK_ReadMemEx(0x40012C4C, 0x0004 Bytes, ..., Flags = 0x02000004)
T0928 019:146.639   CPU_ReadMem(4 bytes @ 0x40012C4C)
T0928 019:147.132   Data:  00 00 00 00
T0928 019:147.155 - 0.547ms returns 0x04
T0928 019:151.747   JLINK_ReadMemEx(0x08000638, 0x003C Bytes, ..., Flags = 0x02000000)
T0928 019:151.785   CPU_ReadMem(128 bytes @ 0x08000600)
T0928 019:153.476    -- Updating C cache (128 bytes @ 0x08000600)
T0928 019:153.502    -- Read from C cache (60 bytes @ 0x08000638)
T0928 019:153.521   Data:  00 68 70 47 00 BF 48 4A 11 68 4F F0 E0 22 52 69 ...
T0928 019:153.536 - 1.796ms returns 0x3C
T0928 019:153.555   JLINK_ReadMemEx(0x08000638, 0x0002 Bytes, ..., Flags = 0x02000000)
T0928 019:153.573    -- Read from C cache (2 bytes @ 0x08000638)
T0928 019:153.590   Data:  00 68
T0928 019:153.606 - 0.057ms returns 0x02
T0928 019:153.622   JLINK_ReadMemEx(0x0800063A, 0x0002 Bytes, ..., Flags = 0x02000000)
T0928 019:153.639    -- Read from C cache (2 bytes @ 0x0800063A)
T0928 019:153.655   Data:  70 47
T0928 019:153.671 - 0.055ms returns 0x02
T40E8 021:849.534   JLINK_ReadMemEx(0x08000638, 0x0002 Bytes, ..., Flags = 0x02000000)
T40E8 021:849.583    -- Read from C cache (2 bytes @ 0x08000638)
T40E8 021:849.601   Data:  00 68
T40E8 021:849.619 - 0.093ms returns 0x02
T40E8 021:849.644 JLINK_Step()
T40E8 021:850.207    -- Read from C cache (2 bytes @ 0x08000638)
T40E8 021:850.237   CPU_ReadMem(4 bytes @ 0xE000ED18)
T40E8 021:850.696   CPU_WriteMem(4 bytes @ 0xE000ED18)
T40E8 021:851.195   CPU_ReadMem(4 bytes @ 0xE000ED18)
T40E8 021:851.648   CPU_WriteMem(4 bytes @ 0xE000ED18)
T40E8 021:852.244   CPU_ReadMem(64 bytes @ 0x20000000)
T40E8 021:853.323    -- Updating C cache (64 bytes @ 0x20000000)
T40E8 021:853.345    -- Read from C cache (4 bytes @ 0x20000018)
T40E8 021:853.365    -- Simulated
T40E8 021:853.382 - 3.744ms returns 0x00
T40E8 021:853.407 JLINK_ReadReg(R15 (PC))
T40E8 021:853.422 - 0.021ms returns 0x0800063A
T40E8 021:853.437 JLINK_ReadReg(XPSR)
T40E8 021:853.450 - 0.018ms returns 0x81000000
T40E8 021:853.533 JLINK_ReadReg(R0)
T40E8 021:853.548 - 0.021ms returns 0x000017B0
T40E8 021:853.564 JLINK_ReadReg(R1)
T40E8 021:853.576 - 0.018ms returns 0x00000001
T40E8 021:853.592 JLINK_ReadReg(R2)
T40E8 021:853.604 - 0.018ms returns 0x20000020
T40E8 021:853.619 JLINK_ReadReg(R3)
T40E8 021:853.631 - 0.018ms returns 0x00000007
T40E8 021:853.646 JLINK_ReadReg(R4)
T40E8 021:853.658 - 0.020ms returns 0x00000001
T40E8 021:853.676 JLINK_ReadReg(R5)
T40E8 021:853.692 - 0.025ms returns 0x000017B0
T40E8 021:853.710 JLINK_ReadReg(R6)
T40E8 021:853.723 - 0.018ms returns 0x00000000
T40E8 021:853.738 JLINK_ReadReg(R7)
T40E8 021:853.750 - 0.018ms returns 0x00000000
T40E8 021:853.765 JLINK_ReadReg(R8)
T40E8 021:853.777 - 0.017ms returns 0x00000000
T40E8 021:853.792 JLINK_ReadReg(R9)
T40E8 021:853.804 - 0.018ms returns 0x20000160
T40E8 021:853.819 JLINK_ReadReg(R10)
T40E8 021:853.831 - 0.018ms returns 0x08004250
T40E8 021:853.846 JLINK_ReadReg(R11)
T40E8 021:853.858 - 0.018ms returns 0x00000000
T40E8 021:853.873 JLINK_ReadReg(R12)
T40E8 021:853.890 - 0.023ms returns 0x000000FF
T40E8 021:853.907 JLINK_ReadReg(R13 (SP))
T40E8 021:853.921 - 0.023ms returns 0x20000880
T40E8 021:853.940 JLINK_ReadReg(R14)
T40E8 021:853.953 - 0.018ms returns 0x0800070F
T40E8 021:853.968 JLINK_ReadReg(R15 (PC))
T40E8 021:853.980 - 0.018ms returns 0x0800063A
T40E8 021:853.995 JLINK_ReadReg(XPSR)
T40E8 021:854.008 - 0.018ms returns 0x81000000
T40E8 021:854.023 JLINK_ReadReg(MSP)
T40E8 021:854.034 - 0.018ms returns 0x20000880
T40E8 021:854.050 JLINK_ReadReg(PSP)
T40E8 021:854.062 - 0.018ms returns 0x20001000
T40E8 021:854.077 JLINK_ReadReg(CFBP)
T40E8 021:854.092 - 0.021ms returns 0x00000000
T0928 021:855.042   JLINK_ReadMemEx(0x2000088C, 0x0004 Bytes, ..., Flags = 0x02000000)
T0928 021:855.080    -- Read from C cache (4 bytes @ 0x2000088C)
T0928 021:855.099   Data:  91 02 00 08
T0928 021:855.116 - 0.081ms returns 0x04
T0928 021:855.137   JLINK_ReadMemEx(0x20000880, 0x0004 Bytes, ..., Flags = 0x02000000)
T0928 021:855.157    -- Read from C cache (4 bytes @ 0x20000880)
T0928 021:855.174   Data:  00 00 00 00
T0928 021:855.191 - 0.060ms returns 0x04
T0928 021:855.207   JLINK_ReadMemEx(0x20000884, 0x0004 Bytes, ..., Flags = 0x02000000)
